
T42B0 000:050 SEGGER J-Link V6.40 Log File (0001ms, 0037ms total)
T42B0 000:050 DLL Compiled: Oct 26 2018 15:06:02 (0001ms, 0037ms total)
T42B0 000:050 Logging started @ 2024-04-08 19:24 (0001ms, 0037ms total)
T42B0 000:051 JLINK_SetWarnOutHandler(...) (0000ms, 0037ms total)
T42B0 000:051 JLINK_OpenEx(...)
Firmware: J-Link V9 compiled May  7 2021 16:26:12
Hardware: V9.50
S/N: 69543528
Feature(s): JFlash, GDB, RDI, FlashBP, FlashDL
TELNET listener socket opened on port 19021WEBSRV 
Starting webserver (0020ms, 0057ms total)
T42B0 000:051 WEBSRV Webserver running on local port 19080 (0020ms, 0057ms total)
T42B0 000:051   returns O.K. (0020ms, 0057ms total)
T42B0 000:071 JLINK_SetErrorOutHandler(...) (0000ms, 0057ms total)
T42B0 000:071 JLINK_ExecCommand("ProjectFile = "D:\¿­´´µÃ\É¨¶¯ÑÀË¢\src\LKSMC3207X\LKS074DO-BRUSH-V.01\JLinkSettings.ini"", ...). Ref file found at: C:\Keil\ARM\Segger\JLinkDevices.ref (0001ms, 0058ms total)
T42B0 000:071 REF file references invalid XML file: C:\Program Files\SEGGER\JLink\JLinkDevices.xml (0001ms, 0058ms total)
T42B0 000:071 Device "CORTEX-M0" selected.  returns 0x00 (0007ms, 0064ms total)
T42B0 000:085 JLINK_ExecCommand("Device = LKS32MC074DOF8Q8", ...). Device "CORTEX-M0" selected.  returns 0x00 (0003ms, 0067ms total)
T42B0 000:089 JLINK_ExecCommand("DisableConnectionTimeout", ...).   returns 0x01 (0000ms, 0067ms total)
T42B0 000:089 JLINK_GetHardwareVersion()  returns 0x17318 (0000ms, 0067ms total)
T42B0 000:089 JLINK_GetDLLVersion()  returns 64000 (0000ms, 0067ms total)
T42B0 000:089 JLINK_GetFirmwareString(...) (0000ms, 0067ms total)
T42B0 000:098 JLINK_GetDLLVersion()  returns 64000 (0000ms, 0067ms total)
T42B0 000:098 JLINK_GetCompileDateTime() (0000ms, 0067ms total)
T42B0 000:100 JLINK_GetFirmwareString(...) (0000ms, 0067ms total)
T42B0 000:102 JLINK_GetHardwareVersion()  returns 0x17318 (0000ms, 0067ms total)
T42B0 000:108 JLINK_TIF_Select(JLINKARM_TIF_SWD)  returns 0x00 (0001ms, 0068ms total)
T42B0 000:109 JLINK_SetSpeed(1000) (0000ms, 0068ms total)
T42B0 000:109 JLINK_GetId() >0x10B TIF>Found SW-DP with ID 0x0BB11477 >0x0D TIF> >0x28 TIF> >0x0D TIF> >0x28 TIF> >0x0D TIF> >0x28 TIF> >0x0D TIF> >0x28 TIF> >0x0D TIF> >0x21 TIF> >0x0D TIF> >0x28 TIF>Scanning AP map to find all available APs >0x0D TIF> >0x28 TIF> >0x0D TIF> >0x21 TIF> >0x0D TIF> >0x21 TIF> >0x0D TIF> >0x28 TIF> >0x0D TIF> >0x21 TIF> >0x0D TIF> >0x21 TIF>AP[1]: Stopped AP scan as end of AP map has been reachedAP[0]: AHB-AP (IDR: 0x04770021)Iterating through AP map to find AHB-AP to use
 >0x42 TIF> >0x28 TIF> >0x0D TIF> >0x28 TIF> >0x0D TIF> >0x21 TIF> >0x0D TIF> >0x21 TIF> >0x42 TIF> >0x28 TIF> >0x0D TIF> >0x28 TIF> >0x0D TIF> >0x28 TIF> >0x0D TIF> >0x21 TIF> >0x0D TIF> >0x21 TIF>AP[0]: Core foundAP[0]: AHB-AP ROM base: 0xE00FF000 >0x0D TIF> >0x28 TIF> >0x0D TIF> >0x28 TIF> >0x0D TIF> >0x28 TIF> >0x0D TIF> >0x21 TIF> >0x0D TIF> >0x21 TIF>CPUID register: 0x410CC200. Implementer code: 0x41 (ARM)Found Cortex-M0 r0p0, Little endian. -- Max. mem block: 0x00010E08
 -- CPU_ReadMem(4 bytes @ 0xE000EDF0) -- CPU_WriteMem(4 bytes @ 0xE000EDF0) -- CPU_ReadMem(4 bytes @ 0xE0002000)FPUnit: 2 code (BP) slots and 0 literal slots -- CPU_ReadMem(4 bytes @ 0xE000EDFC) -- CPU_WriteMem(4 bytes @ 0xE000EDFC) -- CPU_ReadMem(4 bytes @ 0xE0001000) -- CPU_WriteMem(4 bytes @ 0xE0001000)CoreSight components:ROMTbl[0] @ E00FF000 -- CPU_ReadMem(16 bytes @ 0xE00FF000) -- CPU_ReadMem(16 bytes @ 0xE000EFF0) -- CPU_ReadMem(16 bytes @ 0xE000EFE0)
ROMTbl[0][0]: E000E000, CID: B105E00D, PID: 000BB008 SCS -- CPU_ReadMem(16 bytes @ 0xE0001FF0) -- CPU_ReadMem(16 bytes @ 0xE0001FE0)ROMTbl[0][1]: E0001000, CID: B105E00D, PID: 000BB00A DWT -- CPU_ReadMem(16 bytes @ 0xE0002FF0) -- CPU_ReadMem(16 bytes @ 0xE0002FE0)ROMTbl[0][2]: E0002000, CID: B105E00D, PID: 000BB00B FPB >0x0D TIF> >0x21 TIF>  returns 0x0BB11477 (0159ms, 0227ms total)
T42B0 000:268 JLINK_GetDeviceFamily()  returns 6 (0000ms, 0227ms total)
T42B0 000:270 JLINK_ReadMem (0xE00FFFF0, 0x0010 Bytes, ...) -- CPU_ReadMem(16 bytes @ 0xE00FFFF0) - Data: 0D 00 00 00 10 00 00 00 05 00 00 00 B1 00 00 00  returns 0x00 (0001ms, 0228ms total)
T42B0 000:271 JLINK_ReadMem (0xE00FFFD0, 0x0020 Bytes, ...) -- CPU_ReadMem(32 bytes @ 0xE00FFFD0) - Data: 04 00 00 00 00 00 00 00 00 00 00 00 00 00 00 00 ...  returns 0x00 (0001ms, 0229ms total)
T42B0 000:272 JLINK_ReadMem (0xE00FF000, 0x0018 Bytes, ...) -- CPU_ReadMem(24 bytes @ 0xE00FF000) - Data: 03 F0 F0 FF 03 20 F0 FF 03 30 F0 FF 00 00 00 00 ...  returns 0x00 (0001ms, 0230ms total)
T42B0 000:273 JLINK_ReadMemU32(0xE000ED00, 0x0001 Items, ...) -- CPU_ReadMem(4 bytes @ 0xE000ED00) - Data: 00 C2 0C 41  returns 1 (0000ms, 0230ms total)
T42B0 000:273 JLINK_SetResetType(JLINKARM_CM3_RESET_TYPE_NORMAL)  returns JLINKARM_CM3_RESET_TYPE_NORMAL (0000ms, 0230ms total)
T42B0 000:273 JLINK_Reset() -- CPU is running -- CPU_WriteMem(4 bytes @ 0xE000EDF0) -- CPU is running -- CPU_WriteMem(4 bytes @ 0xE000EDFC)Reset: Halt core after reset via DEMCR.VC_CORERESET. >0x35 TIF>Reset: Reset device via AIRCR.SYSRESETREQ. -- CPU is running -- CPU_WriteMem(4 bytes @ 0xE000ED0C) >0x0D TIF> >0x28 TIF> -- CPU_ReadMem(4 bytes @ 0xE000EDF0) -- CPU_ReadMem(4 bytes @ 0xE000EDF0) -- CPU is running -- CPU_WriteMem(4 bytes @ 0xE000EDF0) -- CPU is running -- CPU_WriteMem(4 bytes @ 0xE000EDFC)
 -- CPU_ReadMem(4 bytes @ 0xE000EDF0) -- CPU_WriteMem(4 bytes @ 0xE0002000) -- CPU_ReadMem(4 bytes @ 0xE000EDFC) -- CPU_ReadMem(4 bytes @ 0xE0001000) -- CPU_WriteMem(4 bytes @ 0xE0001000) (0080ms, 0310ms total)
T42B0 000:353 JLINK_Halt()  returns 0x00 (0000ms, 0310ms total)
T42B0 000:353 JLINK_IsHalted()  returns TRUE (0000ms, 0310ms total)
T42B0 000:353 JLINK_ReadMemU32(0xE000EDF0, 0x0001 Items, ...) -- CPU_ReadMem(4 bytes @ 0xE000EDF0) - Data: 03 00 03 00  returns 1 (0000ms, 0310ms total)
T42B0 000:353 JLINK_WriteU32(0xE000EDF0, 0xA05F0003) -- CPU_WriteMem(4 bytes @ 0xE000EDF0)  returns 0 (0001ms, 0311ms total)
T42B0 000:354 JLINK_WriteU32(0xE000EDFC, 0x01000000) -- CPU_WriteMem(4 bytes @ 0xE000EDFC)  returns 0 (0001ms, 0312ms total)
T42B0 000:361 JLINK_GetHWStatus(...)  returns 0x00 (0001ms, 0313ms total)
T42B0 000:367 JLINK_GetNumBPUnits(Type = 0xFFFFFF00)  returns 0x02 (0000ms, 0313ms total)
T42B0 000:367 JLINK_GetNumBPUnits(Type = 0xF0)  returns 0x2000 (0000ms, 0313ms total)
T42B0 000:367 JLINK_GetNumWPUnits()  returns 0x02 (0000ms, 0313ms total)
T42B0 000:371 JLINK_GetSpeed()  returns 0x3E8 (0000ms, 0313ms total)
T42B0 000:373 JLINK_ReadMemU32(0xE000E004, 0x0001 Items, ...) -- CPU_ReadMem(4 bytes @ 0xE000E004) - Data: 00 00 00 00  returns 1 (0001ms, 0314ms total)
T42B0 000:374 JLINK_Halt()  returns 0x00 (0000ms, 0314ms total)
T42B0 000:374 JLINK_IsHalted()  returns TRUE (0000ms, 0314ms total)
T42B0 000:377 JLINK_WriteMem(0x20000000, 0x018C Bytes, ...) - Data: 00 BE 0A E0 0D 78 2D 06 68 40 08 24 40 00 00 D3 ... -- CPU_WriteMem(396 bytes @ 0x20000000)  returns 0x18C (0006ms, 0320ms total)
T42B0 000:383 JLINK_WriteReg(R0, 0x00000000)  returns 0x00 (0000ms, 0320ms total)
T42B0 000:383 JLINK_WriteReg(R1, 0x00B71B00)  returns 0x00 (0000ms, 0320ms total)
T42B0 000:383 JLINK_WriteReg(R2, 0x00000001)  returns 0x00 (0000ms, 0320ms total)
T42B0 000:383 JLINK_WriteReg(R3, 0x00000000)  returns 0x00 (0000ms, 0320ms total)
T42B0 000:383 JLINK_WriteReg(R4, 0x00000000)  returns 0x00 (0000ms, 0320ms total)
T42B0 000:383 JLINK_WriteReg(R5, 0x00000000)  returns 0x00 (0000ms, 0320ms total)
T42B0 000:383 JLINK_WriteReg(R6, 0x00000000)  returns 0x00 (0000ms, 0320ms total)
T42B0 000:383 JLINK_WriteReg(R7, 0x00000000)  returns 0x00 (0000ms, 0320ms total)
T42B0 000:383 JLINK_WriteReg(R8, 0x00000000)  returns 0x00 (0000ms, 0320ms total)
T42B0 000:383 JLINK_WriteReg(R9, 0x20000188)  returns 0x00 (0000ms, 0320ms total)
T42B0 000:383 JLINK_WriteReg(R10, 0x00000000)  returns 0x00 (0000ms, 0320ms total)
T42B0 000:383 JLINK_WriteReg(R11, 0x00000000)  returns 0x00 (0000ms, 0320ms total)
T42B0 000:383 JLINK_WriteReg(R12, 0x00000000)  returns 0x00 (0000ms, 0320ms total)
T42B0 000:383 JLINK_WriteReg(R13 (SP), 0x20000800)  returns 0x00 (0000ms, 0320ms total)
T42B0 000:383 JLINK_WriteReg(R14, 0x20000001)  returns 0x00 (0000ms, 0320ms total)
T42B0 000:383 JLINK_WriteReg(R15 (PC), 0x20000040)  returns 0x00 (0000ms, 0320ms total)
T42B0 000:383 JLINK_WriteReg(XPSR, 0x01000000)  returns 0x00 (0000ms, 0320ms total)
T42B0 000:383 JLINK_WriteReg(MSP, 0x20000800)  returns 0x00 (0000ms, 0320ms total)
T42B0 000:383 JLINK_WriteReg(PSP, 0x20000800)  returns 0x00 (0000ms, 0320ms total)
T42B0 000:383 JLINK_WriteReg(CFBP, 0x00000000)  returns 0x00 (0000ms, 0320ms total)
T42B0 000:383 JLINK_SetBPEx(Addr = 0x20000000, Type = 0xFFFFFFF2) -- CPU_ReadMem(4 bytes @ 0x20000000) -- CPU_WriteMem(4 bytes @ 0x20000000) -- CPU_ReadMem(4 bytes @ 0x20000000) -- CPU_WriteMem(4 bytes @ 0x20000000) -- CPU_ReadMem(2 bytes @ 0x20000000)  returns 0x00000001 (0004ms, 0324ms total)
T42B0 000:387 JLINK_Go() -- CPU_WriteMem(2 bytes @ 0x20000000) -- CPU_ReadMem(4 bytes @ 0xE0001000) -- CPU_WriteMem(4 bytes @ 0xE0001000) -- CPU_WriteMem(4 bytes @ 0xE0002008) -- CPU_WriteMem(4 bytes @ 0xE000200C) -- CPU_WriteMem(4 bytes @ 0xE0001004) (0009ms, 0333ms total)
T42B0 000:396 JLINK_IsHalted() -- CPU_ReadMem(2 bytes @ 0x20000000)  returns TRUE (0007ms, 0340ms total)
T42B0 000:403 JLINK_ReadReg(R15 (PC))  returns 0x20000000 (0000ms, 0333ms total)
T42B0 000:403 JLINK_ClrBPEx(BPHandle = 0x00000001)  returns 0x00 (0000ms, 0333ms total)
T42B0 000:403 JLINK_ReadReg(R0)  returns 0x00000000 (0000ms, 0333ms total)
T42B0 000:403 JLINK_WriteReg(R0, 0x00000000)  returns 0x00 (0000ms, 0333ms total)
T42B0 000:403 JLINK_WriteReg(R1, 0x00B71B00)  returns 0x00 (0000ms, 0333ms total)
T42B0 000:403 JLINK_WriteReg(R2, 0x00000001)  returns 0x00 (0000ms, 0333ms total)
T42B0 000:403 JLINK_WriteReg(R3, 0x00000000)  returns 0x00 (0000ms, 0333ms total)
T42B0 000:403 JLINK_WriteReg(R4, 0x00000000)  returns 0x00 (0000ms, 0333ms total)
T42B0 000:403 JLINK_WriteReg(R5, 0x00000000)  returns 0x00 (0000ms, 0333ms total)
T42B0 000:403 JLINK_WriteReg(R6, 0x00000000)  returns 0x00 (0000ms, 0333ms total)
T42B0 000:403 JLINK_WriteReg(R7, 0x00000000)  returns 0x00 (0000ms, 0333ms total)
T42B0 000:403 JLINK_WriteReg(R8, 0x00000000)  returns 0x00 (0000ms, 0333ms total)
T42B0 000:403 JLINK_WriteReg(R9, 0x20000188)  returns 0x00 (0000ms, 0333ms total)
T42B0 000:403 JLINK_WriteReg(R10, 0x00000000)  returns 0x00 (0000ms, 0333ms total)
T42B0 000:403 JLINK_WriteReg(R11, 0x00000000)  returns 0x00 (0000ms, 0333ms total)
T42B0 000:403 JLINK_WriteReg(R12, 0x00000000)  returns 0x00 (0000ms, 0333ms total)
T42B0 000:403 JLINK_WriteReg(R13 (SP), 0x20000800)  returns 0x00 (0000ms, 0333ms total)
T42B0 000:403 JLINK_WriteReg(R14, 0x20000001)  returns 0x00 (0000ms, 0333ms total)
T42B0 000:403 JLINK_WriteReg(R15 (PC), 0x20000048)  returns 0x00 (0000ms, 0333ms total)
T42B0 000:403 JLINK_WriteReg(XPSR, 0x01000000)  returns 0x00 (0000ms, 0333ms total)
T42B0 000:403 JLINK_WriteReg(MSP, 0x20000800)  returns 0x00 (0000ms, 0333ms total)
T42B0 000:403 JLINK_WriteReg(PSP, 0x20000800)  returns 0x00 (0000ms, 0333ms total)
T42B0 000:403 JLINK_WriteReg(CFBP, 0x00000000)  returns 0x00 (0000ms, 0333ms total)
T42B0 000:403 JLINK_SetBPEx(Addr = 0x20000000, Type = 0xFFFFFFF2)  returns 0x00000002 (0000ms, 0333ms total)
T42B0 000:403 JLINK_Go() -- CPU_ReadMem(4 bytes @ 0xE0001000) -- CPU_WriteMem(4 bytes @ 0xE0001000) (0004ms, 0337ms total)
T42B0 000:407 JLINK_IsHalted()  returns FALSE (0034ms, 0371ms total)
T42B0 000:469 JLINK_IsHalted() -- CPU_ReadMem(2 bytes @ 0x20000000)  returns TRUE (0007ms, 0344ms total)
T42B0 000:476 JLINK_ReadReg(R15 (PC))  returns 0x20000000 (0000ms, 0337ms total)
T42B0 000:476 JLINK_ClrBPEx(BPHandle = 0x00000002)  returns 0x00 (0000ms, 0337ms total)
T42B0 000:476 JLINK_ReadReg(R0)  returns 0x00000000 (0000ms, 0337ms total)
T42B0 000:529 JLINK_WriteReg(R0, 0x00000001)  returns 0x00 (0000ms, 0337ms total)
T42B0 000:529 JLINK_WriteReg(R1, 0x00B71B00)  returns 0x00 (0000ms, 0337ms total)
T42B0 000:529 JLINK_WriteReg(R2, 0x00000001)  returns 0x00 (0000ms, 0337ms total)
T42B0 000:529 JLINK_WriteReg(R3, 0x00000000)  returns 0x00 (0000ms, 0337ms total)
T42B0 000:529 JLINK_WriteReg(R4, 0x00000000)  returns 0x00 (0000ms, 0337ms total)
T42B0 000:529 JLINK_WriteReg(R5, 0x00000000)  returns 0x00 (0000ms, 0337ms total)
T42B0 000:529 JLINK_WriteReg(R6, 0x00000000)  returns 0x00 (0000ms, 0337ms total)
T42B0 000:529 JLINK_WriteReg(R7, 0x00000000)  returns 0x00 (0000ms, 0337ms total)
T42B0 000:530 JLINK_WriteReg(R8, 0x00000000)  returns 0x00 (0000ms, 0337ms total)
T42B0 000:530 JLINK_WriteReg(R9, 0x20000188)  returns 0x00 (0000ms, 0337ms total)
T42B0 000:530 JLINK_WriteReg(R10, 0x00000000)  returns 0x00 (0000ms, 0337ms total)
T42B0 000:530 JLINK_WriteReg(R11, 0x00000000)  returns 0x00 (0000ms, 0337ms total)
T42B0 000:530 JLINK_WriteReg(R12, 0x00000000)  returns 0x00 (0000ms, 0337ms total)
T42B0 000:530 JLINK_WriteReg(R13 (SP), 0x20000800)  returns 0x00 (0000ms, 0337ms total)
T42B0 000:530 JLINK_WriteReg(R14, 0x20000001)  returns 0x00 (0000ms, 0337ms total)
T42B0 000:530 JLINK_WriteReg(R15 (PC), 0x20000044)  returns 0x00 (0000ms, 0337ms total)
T42B0 000:530 JLINK_WriteReg(XPSR, 0x01000000)  returns 0x00 (0000ms, 0337ms total)
T42B0 000:530 JLINK_WriteReg(MSP, 0x20000800)  returns 0x00 (0000ms, 0337ms total)
T42B0 000:530 JLINK_WriteReg(PSP, 0x20000800)  returns 0x00 (0000ms, 0337ms total)
T42B0 000:530 JLINK_WriteReg(CFBP, 0x00000000)  returns 0x00 (0000ms, 0337ms total)
T42B0 000:530 JLINK_SetBPEx(Addr = 0x20000000, Type = 0xFFFFFFF2)  returns 0x00000003 (0000ms, 0337ms total)
T42B0 000:530 JLINK_Go() -- CPU_ReadMem(4 bytes @ 0xE0001000) -- CPU_WriteMem(4 bytes @ 0xE0001000) (0005ms, 0342ms total)
T42B0 000:535 JLINK_IsHalted() -- CPU_ReadMem(2 bytes @ 0x20000000)  returns TRUE (0007ms, 0349ms total)
T42B0 000:542 JLINK_ReadReg(R15 (PC))  returns 0x20000000 (0000ms, 0342ms total)
T42B0 000:542 JLINK_ClrBPEx(BPHandle = 0x00000003)  returns 0x00 (0000ms, 0342ms total)
T42B0 000:542 JLINK_ReadReg(R0)  returns 0x00000000 (0000ms, 0342ms total)
T42B0 000:546 JLINK_WriteMem(0x20000000, 0x018C Bytes, ...) - Data: 00 BE 0A E0 0D 78 2D 06 68 40 08 24 40 00 00 D3 ... -- CPU_WriteMem(396 bytes @ 0x20000000)  returns 0x18C (0006ms, 0348ms total)
T42B0 000:552 JLINK_WriteReg(R0, 0x00000000)  returns 0x00 (0000ms, 0348ms total)
T42B0 000:552 JLINK_WriteReg(R1, 0x00B71B00)  returns 0x00 (0000ms, 0348ms total)
T42B0 000:552 JLINK_WriteReg(R2, 0x00000002)  returns 0x00 (0000ms, 0348ms total)
T42B0 000:552 JLINK_WriteReg(R3, 0x00000000)  returns 0x00 (0000ms, 0348ms total)
T42B0 000:552 JLINK_WriteReg(R4, 0x00000000)  returns 0x00 (0000ms, 0348ms total)
T42B0 000:552 JLINK_WriteReg(R5, 0x00000000)  returns 0x00 (0000ms, 0348ms total)
T42B0 000:552 JLINK_WriteReg(R6, 0x00000000)  returns 0x00 (0000ms, 0348ms total)
T42B0 000:552 JLINK_WriteReg(R7, 0x00000000)  returns 0x00 (0000ms, 0348ms total)
T42B0 000:552 JLINK_WriteReg(R8, 0x00000000)  returns 0x00 (0000ms, 0348ms total)
T42B0 000:552 JLINK_WriteReg(R9, 0x20000188)  returns 0x00 (0000ms, 0348ms total)
T42B0 000:552 JLINK_WriteReg(R10, 0x00000000)  returns 0x00 (0000ms, 0348ms total)
T42B0 000:552 JLINK_WriteReg(R11, 0x00000000)  returns 0x00 (0000ms, 0348ms total)
T42B0 000:552 JLINK_WriteReg(R12, 0x00000000)  returns 0x00 (0000ms, 0348ms total)
T42B0 000:552 JLINK_WriteReg(R13 (SP), 0x20000800)  returns 0x00 (0000ms, 0348ms total)
T42B0 000:552 JLINK_WriteReg(R14, 0x20000001)  returns 0x00 (0000ms, 0348ms total)
T42B0 000:552 JLINK_WriteReg(R15 (PC), 0x20000040)  returns 0x00 (0000ms, 0348ms total)
T42B0 000:552 JLINK_WriteReg(XPSR, 0x01000000)  returns 0x00 (0000ms, 0348ms total)
T42B0 000:552 JLINK_WriteReg(MSP, 0x20000800)  returns 0x00 (0000ms, 0348ms total)
T42B0 000:552 JLINK_WriteReg(PSP, 0x20000800)  returns 0x00 (0000ms, 0348ms total)
T42B0 000:552 JLINK_WriteReg(CFBP, 0x00000000)  returns 0x00 (0000ms, 0348ms total)
T42B0 000:552 JLINK_SetBPEx(Addr = 0x20000000, Type = 0xFFFFFFF2) -- CPU_ReadMem(4 bytes @ 0x20000000) -- CPU_WriteMem(4 bytes @ 0x20000000) -- CPU_ReadMem(4 bytes @ 0x20000000) -- CPU_WriteMem(4 bytes @ 0x20000000) -- CPU_ReadMem(2 bytes @ 0x20000000)  returns 0x00000004 (0004ms, 0352ms total)
T42B0 000:556 JLINK_Go() -- CPU_WriteMem(2 bytes @ 0x20000000) -- CPU_ReadMem(4 bytes @ 0xE0001000) -- CPU_WriteMem(4 bytes @ 0xE0001000) (0004ms, 0356ms total)
T42B0 000:560 JLINK_IsHalted() -- CPU_ReadMem(2 bytes @ 0x20000000)  returns TRUE (0007ms, 0363ms total)
T42B0 000:567 JLINK_ReadReg(R15 (PC))  returns 0x20000000 (0000ms, 0356ms total)
T42B0 000:567 JLINK_ClrBPEx(BPHandle = 0x00000004)  returns 0x00 (0000ms, 0356ms total)
T42B0 000:567 JLINK_ReadReg(R0)  returns 0x00000000 (0000ms, 0356ms total)
T42B0 000:568 JLINK_WriteMem(0x2000018C, 0x0200 Bytes, ...) - Data: 90 07 00 20 D5 00 00 00 E3 00 00 00 E5 00 00 00 ... -- CPU_WriteMem(512 bytes @ 0x2000018C)  returns 0x200 (0007ms, 0363ms total)
T42B0 000:575 JLINK_WriteReg(R0, 0x00000000)  returns 0x00 (0000ms, 0363ms total)
T42B0 000:575 JLINK_WriteReg(R1, 0x00000200)  returns 0x00 (0000ms, 0363ms total)
T42B0 000:575 JLINK_WriteReg(R2, 0x2000018C)  returns 0x00 (0000ms, 0363ms total)
T42B0 000:575 JLINK_WriteReg(R3, 0x00000000)  returns 0x00 (0000ms, 0363ms total)
T42B0 000:575 JLINK_WriteReg(R4, 0x00000000)  returns 0x00 (0000ms, 0363ms total)
T42B0 000:575 JLINK_WriteReg(R5, 0x00000000)  returns 0x00 (0000ms, 0363ms total)
T42B0 000:575 JLINK_WriteReg(R6, 0x00000000)  returns 0x00 (0000ms, 0363ms total)
T42B0 000:575 JLINK_WriteReg(R7, 0x00000000)  returns 0x00 (0000ms, 0363ms total)
T42B0 000:575 JLINK_WriteReg(R8, 0x00000000)  returns 0x00 (0000ms, 0363ms total)
T42B0 000:575 JLINK_WriteReg(R9, 0x20000188)  returns 0x00 (0000ms, 0363ms total)
T42B0 000:575 JLINK_WriteReg(R10, 0x00000000)  returns 0x00 (0000ms, 0363ms total)
T42B0 000:575 JLINK_WriteReg(R11, 0x00000000)  returns 0x00 (0000ms, 0363ms total)
T42B0 000:575 JLINK_WriteReg(R12, 0x00000000)  returns 0x00 (0000ms, 0363ms total)
T42B0 000:575 JLINK_WriteReg(R13 (SP), 0x20000800)  returns 0x00 (0000ms, 0363ms total)
T42B0 000:575 JLINK_WriteReg(R14, 0x20000001)  returns 0x00 (0000ms, 0363ms total)
T42B0 000:575 JLINK_WriteReg(R15 (PC), 0x200000EC)  returns 0x00 (0000ms, 0363ms total)
T42B0 000:575 JLINK_WriteReg(XPSR, 0x01000000)  returns 0x00 (0000ms, 0363ms total)
T42B0 000:575 JLINK_WriteReg(MSP, 0x20000800)  returns 0x00 (0000ms, 0363ms total)
T42B0 000:575 JLINK_WriteReg(PSP, 0x20000800)  returns 0x00 (0000ms, 0363ms total)
T42B0 000:575 JLINK_WriteReg(CFBP, 0x00000000)  returns 0x00 (0000ms, 0363ms total)
T42B0 000:575 JLINK_SetBPEx(Addr = 0x20000000, Type = 0xFFFFFFF2)  returns 0x00000005 (0000ms, 0363ms total)
T42B0 000:575 JLINK_Go() -- CPU_ReadMem(4 bytes @ 0xE0001000) -- CPU_WriteMem(4 bytes @ 0xE0001000) (0004ms, 0367ms total)
T42B0 000:579 JLINK_IsHalted()  returns FALSE (0001ms, 0368ms total)
T42B0 000:584 JLINK_IsHalted()  returns FALSE (0000ms, 0367ms total)
T42B0 000:586 JLINK_IsHalted()  returns FALSE (0000ms, 0367ms total)
T42B0 000:588 JLINK_IsHalted()  returns FALSE (0000ms, 0367ms total)
T42B0 000:590 JLINK_IsHalted()  returns FALSE (0000ms, 0367ms total)
T42B0 000:592 JLINK_IsHalted()  returns FALSE (0000ms, 0367ms total)
T42B0 000:594 JLINK_IsHalted()  returns FALSE (0000ms, 0367ms total)
T42B0 000:596 JLINK_IsHalted()  returns FALSE (0001ms, 0368ms total)
T42B0 000:599 JLINK_IsHalted()  returns FALSE (0000ms, 0367ms total)
T42B0 000:601 JLINK_IsHalted()  returns FALSE (0000ms, 0367ms total)
T42B0 000:604 JLINK_IsHalted()  returns FALSE (0000ms, 0367ms total)
T42B0 000:606 JLINK_IsHalted()  returns FALSE (0000ms, 0367ms total)
T42B0 000:608 JLINK_IsHalted()  returns FALSE (0001ms, 0368ms total)
T42B0 000:611 JLINK_IsHalted() -- CPU_ReadMem(2 bytes @ 0x20000000)  returns TRUE (0007ms, 0374ms total)
T42B0 000:618 JLINK_ReadReg(R15 (PC))  returns 0x20000000 (0000ms, 0367ms total)
T42B0 000:618 JLINK_ClrBPEx(BPHandle = 0x00000005)  returns 0x00 (0000ms, 0367ms total)
T42B0 000:618 JLINK_ReadReg(R0)  returns 0x00000000 (0000ms, 0367ms total)
T42B0 000:618 JLINK_WriteMem(0x2000018C, 0x0200 Bytes, ...) - Data: 7D 43 00 27 AA 18 7C 41 5B 1E 49 1C 61 45 F2 DD ... -- CPU_WriteMem(512 bytes @ 0x2000018C)  returns 0x200 (0007ms, 0374ms total)
T42B0 000:625 JLINK_WriteReg(R0, 0x00000200)  returns 0x00 (0000ms, 0374ms total)
T42B0 000:625 JLINK_WriteReg(R1, 0x00000200)  returns 0x00 (0000ms, 0374ms total)
T42B0 000:625 JLINK_WriteReg(R2, 0x2000018C)  returns 0x00 (0000ms, 0374ms total)
T42B0 000:625 JLINK_WriteReg(R3, 0x00000000)  returns 0x00 (0000ms, 0374ms total)
T42B0 000:625 JLINK_WriteReg(R4, 0x00000000)  returns 0x00 (0000ms, 0374ms total)
T42B0 000:625 JLINK_WriteReg(R5, 0x00000000)  returns 0x00 (0000ms, 0374ms total)
T42B0 000:625 JLINK_WriteReg(R6, 0x00000000)  returns 0x00 (0000ms, 0374ms total)
T42B0 000:625 JLINK_WriteReg(R7, 0x00000000)  returns 0x00 (0000ms, 0374ms total)
T42B0 000:625 JLINK_WriteReg(R8, 0x00000000)  returns 0x00 (0000ms, 0374ms total)
T42B0 000:625 JLINK_WriteReg(R9, 0x20000188)  returns 0x00 (0000ms, 0374ms total)
T42B0 000:625 JLINK_WriteReg(R10, 0x00000000)  returns 0x00 (0000ms, 0374ms total)
T42B0 000:625 JLINK_WriteReg(R11, 0x00000000)  returns 0x00 (0000ms, 0374ms total)
T42B0 000:625 JLINK_WriteReg(R12, 0x00000000)  returns 0x00 (0000ms, 0374ms total)
T42B0 000:625 JLINK_WriteReg(R13 (SP), 0x20000800)  returns 0x00 (0000ms, 0374ms total)
T42B0 000:625 JLINK_WriteReg(R14, 0x20000001)  returns 0x00 (0000ms, 0374ms total)
T42B0 000:625 JLINK_WriteReg(R15 (PC), 0x200000EC)  returns 0x00 (0000ms, 0374ms total)
T42B0 000:625 JLINK_WriteReg(XPSR, 0x01000000)  returns 0x00 (0000ms, 0374ms total)
T42B0 000:625 JLINK_WriteReg(MSP, 0x20000800)  returns 0x00 (0000ms, 0374ms total)
T42B0 000:625 JLINK_WriteReg(PSP, 0x20000800)  returns 0x00 (0000ms, 0374ms total)
T42B0 000:625 JLINK_WriteReg(CFBP, 0x00000000)  returns 0x00 (0000ms, 0374ms total)
T42B0 000:625 JLINK_SetBPEx(Addr = 0x20000000, Type = 0xFFFFFFF2)  returns 0x00000006 (0000ms, 0374ms total)
T42B0 000:625 JLINK_Go() -- CPU_ReadMem(4 bytes @ 0xE0001000) -- CPU_WriteMem(4 bytes @ 0xE0001000) (0005ms, 0379ms total)
T42B0 000:630 JLINK_IsHalted()  returns FALSE (0001ms, 0380ms total)
T42B0 000:633 JLINK_IsHalted()  returns FALSE (0000ms, 0379ms total)
T42B0 000:635 JLINK_IsHalted()  returns FALSE (0000ms, 0379ms total)
T42B0 000:637 JLINK_IsHalted()  returns FALSE (0000ms, 0379ms total)
T42B0 000:640 JLINK_IsHalted()  returns FALSE (0000ms, 0379ms total)
T42B0 000:642 JLINK_IsHalted()  returns FALSE (0001ms, 0380ms total)
T42B0 000:645 JLINK_IsHalted()  returns FALSE (0001ms, 0380ms total)
T42B0 000:648 JLINK_IsHalted()  returns FALSE (0001ms, 0380ms total)
T42B0 000:651 JLINK_IsHalted()  returns FALSE (0001ms, 0380ms total)
T42B0 000:654 JLINK_IsHalted()  returns FALSE (0001ms, 0380ms total)
T42B0 000:657 JLINK_IsHalted()  returns FALSE (0001ms, 0380ms total)
T42B0 000:660 JLINK_IsHalted()  returns FALSE (0001ms, 0380ms total)
T42B0 000:663 JLINK_IsHalted() -- CPU_ReadMem(2 bytes @ 0x20000000)  returns TRUE (0007ms, 0386ms total)
T42B0 000:670 JLINK_ReadReg(R15 (PC))  returns 0x20000000 (0000ms, 0379ms total)
T42B0 000:670 JLINK_ClrBPEx(BPHandle = 0x00000006)  returns 0x00 (0000ms, 0379ms total)
T42B0 000:670 JLINK_ReadReg(R0)  returns 0x00000000 (0000ms, 0379ms total)
T42B0 000:670 JLINK_WriteMem(0x2000018C, 0x0200 Bytes, ...) - Data: 00 21 10 BD 0B 46 D3 40 D0 40 20 24 A2 1A 91 40 ... -- CPU_WriteMem(512 bytes @ 0x2000018C)  returns 0x200 (0007ms, 0386ms total)
T42B0 000:677 JLINK_WriteReg(R0, 0x00000400)  returns 0x00 (0000ms, 0386ms total)
T42B0 000:677 JLINK_WriteReg(R1, 0x00000200)  returns 0x00 (0000ms, 0386ms total)
T42B0 000:677 JLINK_WriteReg(R2, 0x2000018C)  returns 0x00 (0000ms, 0386ms total)
T42B0 000:677 JLINK_WriteReg(R3, 0x00000000)  returns 0x00 (0000ms, 0386ms total)
T42B0 000:677 JLINK_WriteReg(R4, 0x00000000)  returns 0x00 (0000ms, 0386ms total)
T42B0 000:677 JLINK_WriteReg(R5, 0x00000000)  returns 0x00 (0000ms, 0386ms total)
T42B0 000:677 JLINK_WriteReg(R6, 0x00000000)  returns 0x00 (0000ms, 0386ms total)
T42B0 000:677 JLINK_WriteReg(R7, 0x00000000)  returns 0x00 (0000ms, 0386ms total)
T42B0 000:677 JLINK_WriteReg(R8, 0x00000000)  returns 0x00 (0000ms, 0386ms total)
T42B0 000:677 JLINK_WriteReg(R9, 0x20000188)  returns 0x00 (0000ms, 0386ms total)
T42B0 000:677 JLINK_WriteReg(R10, 0x00000000)  returns 0x00 (0000ms, 0386ms total)
T42B0 000:677 JLINK_WriteReg(R11, 0x00000000)  returns 0x00 (0000ms, 0386ms total)
T42B0 000:677 JLINK_WriteReg(R12, 0x00000000)  returns 0x00 (0000ms, 0386ms total)
T42B0 000:677 JLINK_WriteReg(R13 (SP), 0x20000800)  returns 0x00 (0000ms, 0386ms total)
T42B0 000:677 JLINK_WriteReg(R14, 0x20000001)  returns 0x00 (0000ms, 0386ms total)
T42B0 000:677 JLINK_WriteReg(R15 (PC), 0x200000EC)  returns 0x00 (0000ms, 0386ms total)
T42B0 000:677 JLINK_WriteReg(XPSR, 0x01000000)  returns 0x00 (0000ms, 0386ms total)
T42B0 000:677 JLINK_WriteReg(MSP, 0x20000800)  returns 0x00 (0000ms, 0386ms total)
T42B0 000:677 JLINK_WriteReg(PSP, 0x20000800)  returns 0x00 (0000ms, 0386ms total)
T42B0 000:677 JLINK_WriteReg(CFBP, 0x00000000)  returns 0x00 (0000ms, 0386ms total)
T42B0 000:677 JLINK_SetBPEx(Addr = 0x20000000, Type = 0xFFFFFFF2)  returns 0x00000007 (0000ms, 0386ms total)
T42B0 000:677 JLINK_Go() -- CPU_ReadMem(4 bytes @ 0xE0001000) -- CPU_WriteMem(4 bytes @ 0xE0001000) (0005ms, 0391ms total)
T42B0 000:682 JLINK_IsHalted()  returns FALSE (0001ms, 0392ms total)
T42B0 000:685 JLINK_IsHalted()  returns FALSE (0000ms, 0391ms total)
T42B0 000:688 JLINK_IsHalted()  returns FALSE (0001ms, 0392ms total)
T42B0 000:691 JLINK_IsHalted()  returns FALSE (0000ms, 0391ms total)
T42B0 000:693 JLINK_IsHalted()  returns FALSE (0001ms, 0392ms total)
T42B0 000:696 JLINK_IsHalted()  returns FALSE (0001ms, 0392ms total)
T42B0 000:699 JLINK_IsHalted()  returns FALSE (0001ms, 0392ms total)
T42B0 000:702 JLINK_IsHalted()  returns FALSE (0000ms, 0391ms total)
T42B0 000:704 JLINK_IsHalted()  returns FALSE (0000ms, 0391ms total)
T42B0 000:706 JLINK_IsHalted()  returns FALSE (0001ms, 0392ms total)
T42B0 000:709 JLINK_IsHalted()  returns FALSE (0000ms, 0391ms total)
T42B0 000:711 JLINK_IsHalted()  returns FALSE (0000ms, 0391ms total)
T42B0 000:713 JLINK_IsHalted()  returns FALSE (0000ms, 0391ms total)
T42B0 000:715 JLINK_IsHalted() -- CPU_ReadMem(2 bytes @ 0x20000000)  returns TRUE (0006ms, 0397ms total)
T42B0 000:721 JLINK_ReadReg(R15 (PC))  returns 0x20000000 (0000ms, 0391ms total)
T42B0 000:721 JLINK_ClrBPEx(BPHandle = 0x00000007)  returns 0x00 (0000ms, 0391ms total)
T42B0 000:721 JLINK_ReadReg(R0)  returns 0x00000000 (0000ms, 0391ms total)
T42B0 000:722 JLINK_WriteMem(0x2000018C, 0x0200 Bytes, ...) - Data: 14 24 14 5F 0C 1B 02 25 55 5F 6C 43 15 7F 23 46 ... -- CPU_WriteMem(512 bytes @ 0x2000018C)  returns 0x200 (0007ms, 0398ms total)
T42B0 000:729 JLINK_WriteReg(R0, 0x00000600)  returns 0x00 (0000ms, 0398ms total)
T42B0 000:729 JLINK_WriteReg(R1, 0x00000200)  returns 0x00 (0000ms, 0398ms total)
T42B0 000:729 JLINK_WriteReg(R2, 0x2000018C)  returns 0x00 (0000ms, 0398ms total)
T42B0 000:729 JLINK_WriteReg(R3, 0x00000000)  returns 0x00 (0000ms, 0398ms total)
T42B0 000:729 JLINK_WriteReg(R4, 0x00000000)  returns 0x00 (0000ms, 0398ms total)
T42B0 000:729 JLINK_WriteReg(R5, 0x00000000)  returns 0x00 (0000ms, 0398ms total)
T42B0 000:729 JLINK_WriteReg(R6, 0x00000000)  returns 0x00 (0000ms, 0398ms total)
T42B0 000:729 JLINK_WriteReg(R7, 0x00000000)  returns 0x00 (0000ms, 0398ms total)
T42B0 000:729 JLINK_WriteReg(R8, 0x00000000)  returns 0x00 (0000ms, 0398ms total)
T42B0 000:729 JLINK_WriteReg(R9, 0x20000188)  returns 0x00 (0000ms, 0398ms total)
T42B0 000:729 JLINK_WriteReg(R10, 0x00000000)  returns 0x00 (0000ms, 0398ms total)
T42B0 000:729 JLINK_WriteReg(R11, 0x00000000)  returns 0x00 (0000ms, 0398ms total)
T42B0 000:729 JLINK_WriteReg(R12, 0x00000000)  returns 0x00 (0000ms, 0398ms total)
T42B0 000:729 JLINK_WriteReg(R13 (SP), 0x20000800)  returns 0x00 (0000ms, 0398ms total)
T42B0 000:729 JLINK_WriteReg(R14, 0x20000001)  returns 0x00 (0000ms, 0398ms total)
T42B0 000:729 JLINK_WriteReg(R15 (PC), 0x200000EC)  returns 0x00 (0000ms, 0398ms total)
T42B0 000:729 JLINK_WriteReg(XPSR, 0x01000000)  returns 0x00 (0000ms, 0398ms total)
T42B0 000:729 JLINK_WriteReg(MSP, 0x20000800)  returns 0x00 (0000ms, 0398ms total)
T42B0 000:729 JLINK_WriteReg(PSP, 0x20000800)  returns 0x00 (0000ms, 0398ms total)
T42B0 000:729 JLINK_WriteReg(CFBP, 0x00000000)  returns 0x00 (0000ms, 0398ms total)
T42B0 000:729 JLINK_SetBPEx(Addr = 0x20000000, Type = 0xFFFFFFF2)  returns 0x00000008 (0000ms, 0398ms total)
T42B0 000:729 JLINK_Go() -- CPU_ReadMem(4 bytes @ 0xE0001000) -- CPU_WriteMem(4 bytes @ 0xE0001000) (0005ms, 0403ms total)
T42B0 000:734 JLINK_IsHalted()  returns FALSE (0001ms, 0404ms total)
T42B0 000:737 JLINK_IsHalted()  returns FALSE (0001ms, 0404ms total)
T42B0 000:740 JLINK_IsHalted()  returns FALSE (0001ms, 0404ms total)
T42B0 000:743 JLINK_IsHalted()  returns FALSE (0000ms, 0403ms total)
T42B0 000:745 JLINK_IsHalted()  returns FALSE (0000ms, 0403ms total)
T42B0 000:747 JLINK_IsHalted()  returns FALSE (0000ms, 0403ms total)
T42B0 000:750 JLINK_IsHalted()  returns FALSE (0001ms, 0404ms total)
T42B0 000:753 JLINK_IsHalted()  returns FALSE (0000ms, 0403ms total)
T42B0 000:755 JLINK_IsHalted()  returns FALSE (0000ms, 0403ms total)
T42B0 000:757 JLINK_IsHalted()  returns FALSE (0000ms, 0403ms total)
T42B0 000:759 JLINK_IsHalted()  returns FALSE (0000ms, 0403ms total)
T42B0 000:761 JLINK_IsHalted()  returns FALSE (0000ms, 0403ms total)
T42B0 000:763 JLINK_IsHalted()  returns FALSE (0000ms, 0403ms total)
T42B0 000:765 JLINK_IsHalted() -- CPU_ReadMem(2 bytes @ 0x20000000)  returns TRUE (0006ms, 0409ms total)
T42B0 000:771 JLINK_ReadReg(R15 (PC))  returns 0x20000000 (0000ms, 0403ms total)
T42B0 000:771 JLINK_ClrBPEx(BPHandle = 0x00000008)  returns 0x00 (0001ms, 0404ms total)
T42B0 000:772 JLINK_ReadReg(R0)  returns 0x00000000 (0000ms, 0404ms total)
T42B0 000:772 JLINK_WriteMem(0x2000018C, 0x0200 Bytes, ...) - Data: 96 00 05 46 50 35 AC 59 0F 25 8D 40 AC 43 02 9D ... -- CPU_WriteMem(512 bytes @ 0x2000018C)  returns 0x200 (0007ms, 0411ms total)
T42B0 000:779 JLINK_WriteReg(R0, 0x00000800)  returns 0x00 (0000ms, 0411ms total)
T42B0 000:779 JLINK_WriteReg(R1, 0x00000200)  returns 0x00 (0000ms, 0411ms total)
T42B0 000:779 JLINK_WriteReg(R2, 0x2000018C)  returns 0x00 (0000ms, 0411ms total)
T42B0 000:779 JLINK_WriteReg(R3, 0x00000000)  returns 0x00 (0000ms, 0411ms total)
T42B0 000:779 JLINK_WriteReg(R4, 0x00000000)  returns 0x00 (0000ms, 0411ms total)
T42B0 000:779 JLINK_WriteReg(R5, 0x00000000)  returns 0x00 (0000ms, 0411ms total)
T42B0 000:779 JLINK_WriteReg(R6, 0x00000000)  returns 0x00 (0000ms, 0411ms total)
T42B0 000:779 JLINK_WriteReg(R7, 0x00000000)  returns 0x00 (0000ms, 0411ms total)
T42B0 000:779 JLINK_WriteReg(R8, 0x00000000)  returns 0x00 (0000ms, 0411ms total)
T42B0 000:779 JLINK_WriteReg(R9, 0x20000188)  returns 0x00 (0000ms, 0411ms total)
T42B0 000:779 JLINK_WriteReg(R10, 0x00000000)  returns 0x00 (0000ms, 0411ms total)
T42B0 000:779 JLINK_WriteReg(R11, 0x00000000)  returns 0x00 (0000ms, 0411ms total)
T42B0 000:779 JLINK_WriteReg(R12, 0x00000000)  returns 0x00 (0000ms, 0411ms total)
T42B0 000:779 JLINK_WriteReg(R13 (SP), 0x20000800)  returns 0x00 (0000ms, 0411ms total)
T42B0 000:779 JLINK_WriteReg(R14, 0x20000001)  returns 0x00 (0000ms, 0411ms total)
T42B0 000:779 JLINK_WriteReg(R15 (PC), 0x200000EC)  returns 0x00 (0000ms, 0411ms total)
T42B0 000:779 JLINK_WriteReg(XPSR, 0x01000000)  returns 0x00 (0000ms, 0411ms total)
T42B0 000:779 JLINK_WriteReg(MSP, 0x20000800)  returns 0x00 (0000ms, 0411ms total)
T42B0 000:779 JLINK_WriteReg(PSP, 0x20000800)  returns 0x00 (0000ms, 0411ms total)
T42B0 000:779 JLINK_WriteReg(CFBP, 0x00000000)  returns 0x00 (0000ms, 0411ms total)
T42B0 000:779 JLINK_SetBPEx(Addr = 0x20000000, Type = 0xFFFFFFF2)  returns 0x00000009 (0000ms, 0411ms total)
T42B0 000:779 JLINK_Go() -- CPU_ReadMem(4 bytes @ 0xE0001000) -- CPU_WriteMem(4 bytes @ 0xE0001000) (0005ms, 0416ms total)
T42B0 000:784 JLINK_IsHalted()  returns FALSE (0001ms, 0417ms total)
T42B0 000:788 JLINK_IsHalted()  returns FALSE (0001ms, 0417ms total)
T42B0 000:791 JLINK_IsHalted()  returns FALSE (0000ms, 0416ms total)
T42B0 000:793 JLINK_IsHalted()  returns FALSE (0001ms, 0417ms total)
T42B0 000:796 JLINK_IsHalted()  returns FALSE (0000ms, 0416ms total)
T42B0 000:798 JLINK_IsHalted()  returns FALSE (0000ms, 0416ms total)
T42B0 000:800 JLINK_IsHalted()  returns FALSE (0000ms, 0416ms total)
T42B0 000:802 JLINK_IsHalted()  returns FALSE (0000ms, 0416ms total)
T42B0 000:804 JLINK_IsHalted()  returns FALSE (0001ms, 0417ms total)
T42B0 000:807 JLINK_IsHalted()  returns FALSE (0001ms, 0417ms total)
T42B0 000:810 JLINK_IsHalted()  returns FALSE (0000ms, 0416ms total)
T42B0 000:812 JLINK_IsHalted()  returns FALSE (0000ms, 0416ms total)
T42B0 000:814 JLINK_IsHalted()  returns FALSE (0000ms, 0416ms total)
T42B0 000:816 JLINK_IsHalted() -- CPU_ReadMem(2 bytes @ 0x20000000)  returns TRUE (0007ms, 0423ms total)
T42B0 000:823 JLINK_ReadReg(R15 (PC))  returns 0x20000000 (0000ms, 0416ms total)
T42B0 000:823 JLINK_ClrBPEx(BPHandle = 0x00000009)  returns 0x00 (0000ms, 0416ms total)
T42B0 000:823 JLINK_ReadReg(R0)  returns 0x00000000 (0000ms, 0416ms total)
T42B0 000:823 JLINK_WriteMem(0x2000018C, 0x0200 Bytes, ...) - Data: 01 83 41 83 00 21 C1 83 01 84 01 21 41 84 01 A9 ... -- CPU_WriteMem(512 bytes @ 0x2000018C)  returns 0x200 (0007ms, 0423ms total)
T42B0 000:830 JLINK_WriteReg(R0, 0x00000A00)  returns 0x00 (0000ms, 0423ms total)
T42B0 000:830 JLINK_WriteReg(R1, 0x00000200)  returns 0x00 (0000ms, 0423ms total)
T42B0 000:830 JLINK_WriteReg(R2, 0x2000018C)  returns 0x00 (0000ms, 0423ms total)
T42B0 000:830 JLINK_WriteReg(R3, 0x00000000)  returns 0x00 (0000ms, 0423ms total)
T42B0 000:830 JLINK_WriteReg(R4, 0x00000000)  returns 0x00 (0000ms, 0423ms total)
T42B0 000:830 JLINK_WriteReg(R5, 0x00000000)  returns 0x00 (0000ms, 0423ms total)
T42B0 000:830 JLINK_WriteReg(R6, 0x00000000)  returns 0x00 (0000ms, 0423ms total)
T42B0 000:830 JLINK_WriteReg(R7, 0x00000000)  returns 0x00 (0000ms, 0423ms total)
T42B0 000:830 JLINK_WriteReg(R8, 0x00000000)  returns 0x00 (0000ms, 0423ms total)
T42B0 000:830 JLINK_WriteReg(R9, 0x20000188)  returns 0x00 (0000ms, 0423ms total)
T42B0 000:830 JLINK_WriteReg(R10, 0x00000000)  returns 0x00 (0000ms, 0423ms total)
T42B0 000:830 JLINK_WriteReg(R11, 0x00000000)  returns 0x00 (0000ms, 0423ms total)
T42B0 000:830 JLINK_WriteReg(R12, 0x00000000)  returns 0x00 (0000ms, 0423ms total)
T42B0 000:830 JLINK_WriteReg(R13 (SP), 0x20000800)  returns 0x00 (0000ms, 0423ms total)
T42B0 000:830 JLINK_WriteReg(R14, 0x20000001)  returns 0x00 (0000ms, 0423ms total)
T42B0 000:830 JLINK_WriteReg(R15 (PC), 0x200000EC)  returns 0x00 (0000ms, 0423ms total)
T42B0 000:830 JLINK_WriteReg(XPSR, 0x01000000)  returns 0x00 (0000ms, 0423ms total)
T42B0 000:830 JLINK_WriteReg(MSP, 0x20000800)  returns 0x00 (0000ms, 0423ms total)
T42B0 000:830 JLINK_WriteReg(PSP, 0x20000800)  returns 0x00 (0000ms, 0423ms total)
T42B0 000:830 JLINK_WriteReg(CFBP, 0x00000000)  returns 0x00 (0000ms, 0423ms total)
T42B0 000:830 JLINK_SetBPEx(Addr = 0x20000000, Type = 0xFFFFFFF2)  returns 0x0000000A (0000ms, 0423ms total)
T42B0 000:830 JLINK_Go() -- CPU_ReadMem(4 bytes @ 0xE0001000) -- CPU_WriteMem(4 bytes @ 0xE0001000) (0005ms, 0428ms total)
T42B0 000:835 JLINK_IsHalted()  returns FALSE (0001ms, 0429ms total)
T42B0 000:838 JLINK_IsHalted()  returns FALSE (0001ms, 0429ms total)
T42B0 000:841 JLINK_IsHalted()  returns FALSE (0001ms, 0429ms total)
T42B0 000:844 JLINK_IsHalted()  returns FALSE (0001ms, 0429ms total)
T42B0 000:847 JLINK_IsHalted()  returns FALSE (0000ms, 0428ms total)
T42B0 000:849 JLINK_IsHalted()  returns FALSE (0000ms, 0428ms total)
T42B0 000:851 JLINK_IsHalted()  returns FALSE (0001ms, 0429ms total)
T42B0 000:854 JLINK_IsHalted()  returns FALSE (0000ms, 0428ms total)
T42B0 000:856 JLINK_IsHalted()  returns FALSE (0001ms, 0429ms total)
T42B0 000:859 JLINK_IsHalted()  returns FALSE (0001ms, 0429ms total)
T42B0 000:862 JLINK_IsHalted()  returns FALSE (0000ms, 0428ms total)
T42B0 000:864 JLINK_IsHalted()  returns FALSE (0000ms, 0428ms total)
T42B0 000:866 JLINK_IsHalted()  returns FALSE (0000ms, 0428ms total)
T42B0 000:868 JLINK_IsHalted() -- CPU_ReadMem(2 bytes @ 0x20000000)  returns TRUE (0007ms, 0435ms total)
T42B0 000:875 JLINK_ReadReg(R15 (PC))  returns 0x20000000 (0000ms, 0428ms total)
T42B0 000:875 JLINK_ClrBPEx(BPHandle = 0x0000000A)  returns 0x00 (0000ms, 0428ms total)
T42B0 000:875 JLINK_ReadReg(R0)  returns 0x00000000 (0000ms, 0428ms total)
T42B0 000:875 JLINK_WriteMem(0x2000018C, 0x0200 Bytes, ...) - Data: 08 43 20 60 12 E0 60 68 29 68 08 43 60 60 20 68 ... -- CPU_WriteMem(512 bytes @ 0x2000018C)  returns 0x200 (0007ms, 0435ms total)
T42B0 000:882 JLINK_WriteReg(R0, 0x00000C00)  returns 0x00 (0000ms, 0435ms total)
T42B0 000:882 JLINK_WriteReg(R1, 0x00000200)  returns 0x00 (0000ms, 0435ms total)
T42B0 000:882 JLINK_WriteReg(R2, 0x2000018C)  returns 0x00 (0000ms, 0435ms total)
T42B0 000:882 JLINK_WriteReg(R3, 0x00000000)  returns 0x00 (0000ms, 0435ms total)
T42B0 000:882 JLINK_WriteReg(R4, 0x00000000)  returns 0x00 (0000ms, 0435ms total)
T42B0 000:882 JLINK_WriteReg(R5, 0x00000000)  returns 0x00 (0000ms, 0435ms total)
T42B0 000:882 JLINK_WriteReg(R6, 0x00000000)  returns 0x00 (0000ms, 0435ms total)
T42B0 000:882 JLINK_WriteReg(R7, 0x00000000)  returns 0x00 (0000ms, 0435ms total)
T42B0 000:882 JLINK_WriteReg(R8, 0x00000000)  returns 0x00 (0000ms, 0435ms total)
T42B0 000:882 JLINK_WriteReg(R9, 0x20000188)  returns 0x00 (0000ms, 0435ms total)
T42B0 000:882 JLINK_WriteReg(R10, 0x00000000)  returns 0x00 (0000ms, 0435ms total)
T42B0 000:882 JLINK_WriteReg(R11, 0x00000000)  returns 0x00 (0000ms, 0435ms total)
T42B0 000:882 JLINK_WriteReg(R12, 0x00000000)  returns 0x00 (0000ms, 0435ms total)
T42B0 000:882 JLINK_WriteReg(R13 (SP), 0x20000800)  returns 0x00 (0000ms, 0435ms total)
T42B0 000:882 JLINK_WriteReg(R14, 0x20000001)  returns 0x00 (0000ms, 0435ms total)
T42B0 000:882 JLINK_WriteReg(R15 (PC), 0x200000EC)  returns 0x00 (0000ms, 0435ms total)
T42B0 000:882 JLINK_WriteReg(XPSR, 0x01000000)  returns 0x00 (0000ms, 0435ms total)
T42B0 000:882 JLINK_WriteReg(MSP, 0x20000800)  returns 0x00 (0000ms, 0435ms total)
T42B0 000:882 JLINK_WriteReg(PSP, 0x20000800)  returns 0x00 (0000ms, 0435ms total)
T42B0 000:882 JLINK_WriteReg(CFBP, 0x00000000)  returns 0x00 (0000ms, 0435ms total)
T42B0 000:882 JLINK_SetBPEx(Addr = 0x20000000, Type = 0xFFFFFFF2)  returns 0x0000000B (0000ms, 0435ms total)
T42B0 000:882 JLINK_Go() -- CPU_ReadMem(4 bytes @ 0xE0001000) -- CPU_WriteMem(4 bytes @ 0xE0001000) (0005ms, 0440ms total)
T42B0 000:887 JLINK_IsHalted()  returns FALSE (0001ms, 0441ms total)
T42B0 000:891 JLINK_IsHalted()  returns FALSE (0000ms, 0440ms total)
T42B0 000:893 JLINK_IsHalted()  returns FALSE (0001ms, 0441ms total)
T42B0 000:896 JLINK_IsHalted()  returns FALSE (0001ms, 0441ms total)
T42B0 000:899 JLINK_IsHalted()  returns FALSE (0000ms, 0440ms total)
T42B0 000:901 JLINK_IsHalted()  returns FALSE (0001ms, 0441ms total)
T42B0 000:904 JLINK_IsHalted()  returns FALSE (0001ms, 0441ms total)
T42B0 000:907 JLINK_IsHalted()  returns FALSE (0001ms, 0441ms total)
T42B0 000:910 JLINK_IsHalted()  returns FALSE (0001ms, 0441ms total)
T42B0 000:913 JLINK_IsHalted()  returns FALSE (0000ms, 0440ms total)
T42B0 000:915 JLINK_IsHalted()  returns FALSE (0000ms, 0440ms total)
T42B0 000:918 JLINK_IsHalted()  returns FALSE (0000ms, 0440ms total)
T42B0 000:920 JLINK_IsHalted() -- CPU_ReadMem(2 bytes @ 0x20000000)  returns TRUE (0007ms, 0447ms total)
T42B0 000:927 JLINK_ReadReg(R15 (PC))  returns 0x20000000 (0000ms, 0440ms total)
T42B0 000:927 JLINK_ClrBPEx(BPHandle = 0x0000000B)  returns 0x00 (0000ms, 0440ms total)
T42B0 000:927 JLINK_ReadReg(R0)  returns 0x00000000 (0000ms, 0440ms total)
T42B0 000:927 JLINK_WriteMem(0x2000018C, 0x0200 Bytes, ...) - Data: FF F7 E9 FE 00 22 0D 21 0A 48 40 38 FF F7 34 FF ... -- CPU_WriteMem(512 bytes @ 0x2000018C)  returns 0x200 (0008ms, 0448ms total)
T42B0 000:935 JLINK_WriteReg(R0, 0x00000E00)  returns 0x00 (0000ms, 0448ms total)
T42B0 000:935 JLINK_WriteReg(R1, 0x00000200)  returns 0x00 (0000ms, 0448ms total)
T42B0 000:935 JLINK_WriteReg(R2, 0x2000018C)  returns 0x00 (0000ms, 0448ms total)
T42B0 000:935 JLINK_WriteReg(R3, 0x00000000)  returns 0x00 (0000ms, 0448ms total)
T42B0 000:935 JLINK_WriteReg(R4, 0x00000000)  returns 0x00 (0000ms, 0448ms total)
T42B0 000:935 JLINK_WriteReg(R5, 0x00000000)  returns 0x00 (0000ms, 0448ms total)
T42B0 000:935 JLINK_WriteReg(R6, 0x00000000)  returns 0x00 (0000ms, 0448ms total)
T42B0 000:935 JLINK_WriteReg(R7, 0x00000000)  returns 0x00 (0000ms, 0448ms total)
T42B0 000:935 JLINK_WriteReg(R8, 0x00000000)  returns 0x00 (0000ms, 0448ms total)
T42B0 000:935 JLINK_WriteReg(R9, 0x20000188)  returns 0x00 (0000ms, 0448ms total)
T42B0 000:935 JLINK_WriteReg(R10, 0x00000000)  returns 0x00 (0000ms, 0448ms total)
T42B0 000:935 JLINK_WriteReg(R11, 0x00000000)  returns 0x00 (0000ms, 0448ms total)
T42B0 000:935 JLINK_WriteReg(R12, 0x00000000)  returns 0x00 (0000ms, 0448ms total)
T42B0 000:935 JLINK_WriteReg(R13 (SP), 0x20000800)  returns 0x00 (0000ms, 0448ms total)
T42B0 000:935 JLINK_WriteReg(R14, 0x20000001)  returns 0x00 (0000ms, 0448ms total)
T42B0 000:935 JLINK_WriteReg(R15 (PC), 0x200000EC)  returns 0x00 (0000ms, 0448ms total)
T42B0 000:935 JLINK_WriteReg(XPSR, 0x01000000)  returns 0x00 (0000ms, 0448ms total)
T42B0 000:935 JLINK_WriteReg(MSP, 0x20000800)  returns 0x00 (0000ms, 0448ms total)
T42B0 000:935 JLINK_WriteReg(PSP, 0x20000800)  returns 0x00 (0000ms, 0448ms total)
T42B0 000:935 JLINK_WriteReg(CFBP, 0x00000000)  returns 0x00 (0000ms, 0448ms total)
T42B0 000:935 JLINK_SetBPEx(Addr = 0x20000000, Type = 0xFFFFFFF2)  returns 0x0000000C (0000ms, 0448ms total)
T42B0 000:935 JLINK_Go() -- CPU_ReadMem(4 bytes @ 0xE0001000) -- CPU_WriteMem(4 bytes @ 0xE0001000) (0004ms, 0452ms total)
T42B0 000:939 JLINK_IsHalted()  returns FALSE (0001ms, 0453ms total)
T42B0 000:942 JLINK_IsHalted()  returns FALSE (0001ms, 0453ms total)
T42B0 000:945 JLINK_IsHalted()  returns FALSE (0001ms, 0453ms total)
T42B0 000:948 JLINK_IsHalted()  returns FALSE (0000ms, 0452ms total)
T42B0 000:950 JLINK_IsHalted()  returns FALSE (0000ms, 0452ms total)
T42B0 000:952 JLINK_IsHalted()  returns FALSE (0000ms, 0452ms total)
T42B0 000:954 JLINK_IsHalted()  returns FALSE (0000ms, 0452ms total)
T42B0 000:956 JLINK_IsHalted()  returns FALSE (0000ms, 0452ms total)
T42B0 000:958 JLINK_IsHalted()  returns FALSE (0000ms, 0452ms total)
T42B0 000:960 JLINK_IsHalted()  returns FALSE (0000ms, 0452ms total)
T42B0 000:962 JLINK_IsHalted()  returns FALSE (0000ms, 0452ms total)
T42B0 000:964 JLINK_IsHalted()  returns FALSE (0000ms, 0452ms total)
T42B0 000:966 JLINK_IsHalted()  returns FALSE (0000ms, 0452ms total)
T42B0 000:968 JLINK_IsHalted()  returns FALSE (0000ms, 0452ms total)
T42B0 000:970 JLINK_IsHalted()  returns FALSE (0000ms, 0452ms total)
T42B0 000:972 JLINK_IsHalted() -- CPU_ReadMem(2 bytes @ 0x20000000)  returns TRUE (0007ms, 0459ms total)
T42B0 000:979 JLINK_ReadReg(R15 (PC))  returns 0x20000000 (0000ms, 0452ms total)
T42B0 000:979 JLINK_ClrBPEx(BPHandle = 0x0000000C)  returns 0x00 (0000ms, 0452ms total)
T42B0 000:979 JLINK_ReadReg(R0)  returns 0x00000000 (0000ms, 0452ms total)
T42B0 000:979 JLINK_WriteMem(0x2000018C, 0x0200 Bytes, ...) - Data: 89 01 08 43 A1 7F C9 01 08 43 21 21 09 5D 09 02 ... -- CPU_WriteMem(512 bytes @ 0x2000018C)  returns 0x200 (0007ms, 0459ms total)
T42B0 000:986 JLINK_WriteReg(R0, 0x00001000)  returns 0x00 (0000ms, 0459ms total)
T42B0 000:986 JLINK_WriteReg(R1, 0x00000200)  returns 0x00 (0000ms, 0459ms total)
T42B0 000:986 JLINK_WriteReg(R2, 0x2000018C)  returns 0x00 (0000ms, 0459ms total)
T42B0 000:986 JLINK_WriteReg(R3, 0x00000000)  returns 0x00 (0000ms, 0459ms total)
T42B0 000:986 JLINK_WriteReg(R4, 0x00000000)  returns 0x00 (0000ms, 0459ms total)
T42B0 000:986 JLINK_WriteReg(R5, 0x00000000)  returns 0x00 (0000ms, 0459ms total)
T42B0 000:986 JLINK_WriteReg(R6, 0x00000000)  returns 0x00 (0000ms, 0459ms total)
T42B0 000:986 JLINK_WriteReg(R7, 0x00000000)  returns 0x00 (0000ms, 0459ms total)
T42B0 000:986 JLINK_WriteReg(R8, 0x00000000)  returns 0x00 (0000ms, 0459ms total)
T42B0 000:986 JLINK_WriteReg(R9, 0x20000188)  returns 0x00 (0000ms, 0459ms total)
T42B0 000:986 JLINK_WriteReg(R10, 0x00000000)  returns 0x00 (0000ms, 0459ms total)
T42B0 000:986 JLINK_WriteReg(R11, 0x00000000)  returns 0x00 (0000ms, 0459ms total)
T42B0 000:986 JLINK_WriteReg(R12, 0x00000000)  returns 0x00 (0000ms, 0459ms total)
T42B0 000:986 JLINK_WriteReg(R13 (SP), 0x20000800)  returns 0x00 (0000ms, 0459ms total)
T42B0 000:986 JLINK_WriteReg(R14, 0x20000001)  returns 0x00 (0000ms, 0459ms total)
T42B0 000:986 JLINK_WriteReg(R15 (PC), 0x200000EC)  returns 0x00 (0000ms, 0459ms total)
T42B0 000:986 JLINK_WriteReg(XPSR, 0x01000000)  returns 0x00 (0000ms, 0459ms total)
T42B0 000:986 JLINK_WriteReg(MSP, 0x20000800)  returns 0x00 (0000ms, 0459ms total)
T42B0 000:986 JLINK_WriteReg(PSP, 0x20000800)  returns 0x00 (0000ms, 0459ms total)
T42B0 000:986 JLINK_WriteReg(CFBP, 0x00000000)  returns 0x00 (0000ms, 0459ms total)
T42B0 000:986 JLINK_SetBPEx(Addr = 0x20000000, Type = 0xFFFFFFF2)  returns 0x0000000D (0000ms, 0459ms total)
T42B0 000:986 JLINK_Go() -- CPU_ReadMem(4 bytes @ 0xE0001000) -- CPU_WriteMem(4 bytes @ 0xE0001000) (0005ms, 0464ms total)
T42B0 000:991 JLINK_IsHalted()  returns FALSE (0001ms, 0465ms total)
T42B0 000:994 JLINK_IsHalted()  returns FALSE (0000ms, 0464ms total)
T42B0 000:996 JLINK_IsHalted()  returns FALSE (0000ms, 0464ms total)
T42B0 000:998 JLINK_IsHalted()  returns FALSE (0000ms, 0464ms total)
T42B0 001:001 JLINK_IsHalted()  returns FALSE (0000ms, 0464ms total)
T42B0 001:003 JLINK_IsHalted()  returns FALSE (0000ms, 0464ms total)
T42B0 001:005 JLINK_IsHalted()  returns FALSE (0000ms, 0464ms total)
T42B0 001:007 JLINK_IsHalted()  returns FALSE (0000ms, 0464ms total)
T42B0 001:009 JLINK_IsHalted()  returns FALSE (0000ms, 0464ms total)
T42B0 001:011 JLINK_IsHalted()  returns FALSE (0000ms, 0464ms total)
T42B0 001:013 JLINK_IsHalted()  returns FALSE (0001ms, 0465ms total)
T42B0 001:016 JLINK_IsHalted()  returns FALSE (0000ms, 0464ms total)
T42B0 001:018 JLINK_IsHalted()  returns FALSE (0000ms, 0464ms total)
T42B0 001:020 JLINK_IsHalted()  returns FALSE (0000ms, 0464ms total)
T42B0 001:023 JLINK_IsHalted() -- CPU_ReadMem(2 bytes @ 0x20000000)  returns TRUE (0007ms, 0471ms total)
T42B0 001:030 JLINK_ReadReg(R15 (PC))  returns 0x20000000 (0000ms, 0464ms total)
T42B0 001:030 JLINK_ClrBPEx(BPHandle = 0x0000000D)  returns 0x00 (0000ms, 0464ms total)
T42B0 001:030 JLINK_ReadReg(R0)  returns 0x00000000 (0000ms, 0464ms total)
T42B0 001:030 JLINK_WriteMem(0x2000018C, 0x0200 Bytes, ...) - Data: D1 21 09 5D C9 01 08 43 D0 21 09 5D 09 02 08 43 ... -- CPU_WriteMem(512 bytes @ 0x2000018C)  returns 0x200 (0008ms, 0472ms total)
T42B0 001:038 JLINK_WriteReg(R0, 0x00001200)  returns 0x00 (0000ms, 0472ms total)
T42B0 001:038 JLINK_WriteReg(R1, 0x00000200)  returns 0x00 (0000ms, 0472ms total)
T42B0 001:038 JLINK_WriteReg(R2, 0x2000018C)  returns 0x00 (0000ms, 0472ms total)
T42B0 001:038 JLINK_WriteReg(R3, 0x00000000)  returns 0x00 (0000ms, 0472ms total)
T42B0 001:038 JLINK_WriteReg(R4, 0x00000000)  returns 0x00 (0000ms, 0472ms total)
T42B0 001:038 JLINK_WriteReg(R5, 0x00000000)  returns 0x00 (0000ms, 0472ms total)
T42B0 001:038 JLINK_WriteReg(R6, 0x00000000)  returns 0x00 (0000ms, 0472ms total)
T42B0 001:038 JLINK_WriteReg(R7, 0x00000000)  returns 0x00 (0000ms, 0472ms total)
T42B0 001:038 JLINK_WriteReg(R8, 0x00000000)  returns 0x00 (0000ms, 0472ms total)
T42B0 001:038 JLINK_WriteReg(R9, 0x20000188)  returns 0x00 (0000ms, 0472ms total)
T42B0 001:038 JLINK_WriteReg(R10, 0x00000000)  returns 0x00 (0000ms, 0472ms total)
T42B0 001:038 JLINK_WriteReg(R11, 0x00000000)  returns 0x00 (0000ms, 0472ms total)
T42B0 001:038 JLINK_WriteReg(R12, 0x00000000)  returns 0x00 (0000ms, 0472ms total)
T42B0 001:038 JLINK_WriteReg(R13 (SP), 0x20000800)  returns 0x00 (0000ms, 0472ms total)
T42B0 001:038 JLINK_WriteReg(R14, 0x20000001)  returns 0x00 (0000ms, 0472ms total)
T42B0 001:038 JLINK_WriteReg(R15 (PC), 0x200000EC)  returns 0x00 (0000ms, 0472ms total)
T42B0 001:038 JLINK_WriteReg(XPSR, 0x01000000)  returns 0x00 (0000ms, 0472ms total)
T42B0 001:038 JLINK_WriteReg(MSP, 0x20000800)  returns 0x00 (0000ms, 0472ms total)
T42B0 001:038 JLINK_WriteReg(PSP, 0x20000800)  returns 0x00 (0000ms, 0472ms total)
T42B0 001:038 JLINK_WriteReg(CFBP, 0x00000000)  returns 0x00 (0000ms, 0472ms total)
T42B0 001:038 JLINK_SetBPEx(Addr = 0x20000000, Type = 0xFFFFFFF2)  returns 0x0000000E (0000ms, 0472ms total)
T42B0 001:038 JLINK_Go() -- CPU_ReadMem(4 bytes @ 0xE0001000) -- CPU_WriteMem(4 bytes @ 0xE0001000) (0004ms, 0476ms total)
T42B0 001:042 JLINK_IsHalted()  returns FALSE (0001ms, 0477ms total)
T42B0 001:045 JLINK_IsHalted()  returns FALSE (0000ms, 0476ms total)
T42B0 001:047 JLINK_IsHalted()  returns FALSE (0000ms, 0476ms total)
T42B0 001:049 JLINK_IsHalted()  returns FALSE (0000ms, 0476ms total)
T42B0 001:051 JLINK_IsHalted()  returns FALSE (0001ms, 0477ms total)
T42B0 001:054 JLINK_IsHalted()  returns FALSE (0001ms, 0477ms total)
T42B0 001:057 JLINK_IsHalted()  returns FALSE (0000ms, 0476ms total)
T42B0 001:059 JLINK_IsHalted()  returns FALSE (0000ms, 0476ms total)
T42B0 001:061 JLINK_IsHalted()  returns FALSE (0002ms, 0478ms total)
T42B0 001:065 JLINK_IsHalted()  returns FALSE (0000ms, 0476ms total)
T42B0 001:067 JLINK_IsHalted()  returns FALSE (0000ms, 0476ms total)
T42B0 001:069 JLINK_IsHalted()  returns FALSE (0000ms, 0476ms total)
T42B0 001:071 JLINK_IsHalted()  returns FALSE (0000ms, 0476ms total)
T42B0 001:073 JLINK_IsHalted() -- CPU_ReadMem(2 bytes @ 0x20000000)  returns TRUE (0006ms, 0482ms total)
